
T0A04 000:274 SEGGER J-Link V6.32 Log File (0000ms, 0063ms total)
T0A04 000:274 DLL Compiled: Apr 20 2018 17:25:02 (0000ms, 0063ms total)
T0A04 000:274 Logging started @ 2020-10-28 16:03 (0000ms, 0063ms total)
T0A04 000:274 JLINK_SetWarnOutHandler(...) (0000ms, 0063ms total)
T0A04 000:274 JLINK_OpenEx(...)
Firmware: J-Link ARM / Flasher ARM V2 compiled Aug 19 2013 20:53:43
Hardware: V1.00
S/N: 162100713
Feature(s): JFlash
TELNET listener socket opened on port 19021WEBSRV 
Starting webserver (0020ms, 0083ms total)
T0A04 000:274 WEBSRV Webserver running on local port 19080 (0020ms, 0083ms total)
T0A04 000:274   returns O.K. (0020ms, 0083ms total)
T0A04 000:294 JLINK_SetErrorOutHandler(...) (0000ms, 0083ms total)
T0A04 000:294 JLINK_ExecCommand("ProjectFile = "C:\Users\Dyachenko-OA\Desktop\UDS_cell_20200110\MDK-ARM\JLinkSettings.ini"", ...). Ref file found at: C:\Keil_v5\ARM\Segger\JLinkDevices.ref (0348ms, 0431ms total)
T0A04 000:294 REF file references invalid XML file: C:\Program Files (x86)\SEGGER\JLink_V632\JLinkDevices.xml (0349ms, 0432ms total)
T0A04 000:294   returns 0x00 (0349ms, 0432ms total)
T0A04 000:646 JLINK_ExecCommand("Device = STM32F030K6", ...). Device "STM32F030K6" selected.  returns 0x00 (0005ms, 0437ms total)
T0A04 000:651 JLINK_ExecCommand("DisableConnectionTimeout", ...).   returns 0x01 (0000ms, 0437ms total)
T0A04 000:651 JLINK_GetHardwareVersion()  returns 0x2710 (0000ms, 0437ms total)
T0A04 000:651 JLINK_GetDLLVersion()  returns 63200 (0000ms, 0437ms total)
T0A04 000:651 JLINK_GetFirmwareString(...) (0000ms, 0437ms total)
T0A04 000:660 JLINK_GetDLLVersion()  returns 63200 (0000ms, 0437ms total)
T0A04 000:660 JLINK_GetCompileDateTime() (0000ms, 0437ms total)
T0A04 000:663 JLINK_GetFirmwareString(...) (0000ms, 0437ms total)
T0A04 000:666 JLINK_GetHardwareVersion()  returns 0x2710 (0000ms, 0437ms total)
T0A04 000:678 JLINK_TIF_Select(JLINKARM_TIF_SWD)  returns 0x00 (0005ms, 0442ms total)
T0A04 000:683 JLINK_SetSpeed(500) (0001ms, 0443ms total)
T0A04 000:684 JLINK_GetId() >0x10B TIF>Found SW-DP with ID 0x0BB11477 >0x0D TIF> >0x28 TIF> >0x0D TIF> >0x28 TIF> >0x0D TIF> >0x28 TIF> >0x0D TIF> >0x28 TIF> >0x0D TIF> >0x21 TIF> >0x0D TIF> >0x28 TIF> >0x0D TIF> >0x28 TIF> >0x0D TIF> >0x28 TIF> >0x0D TIF> >0x21 TIF> >0x0D TIF> >0x21 TIF> >0x0D TIF> >0x28 TIF> >0x0D TIF> >0x21 TIF> >0x0D TIF> >0x21 TIF> >0x0D TIF> >0x28 TIF> >0x0D TIF> >0x21 TIF> >0x0D TIF> >0x21 TIF> >0x0D TIF> >0x28 TIF> >0x0D TIF> >0x28 TIF> >0x0D TIF> >0x28 TIF> >0x0D TIF> >0x21 TIF>
 >0x0D TIF> >0x21 TIF> >0x0D TIF> >0x28 TIF> >0x0D TIF> >0x28 TIF> >0x0D TIF> >0x28 TIF> >0x0D TIF> >0x21 TIF> >0x0D TIF> >0x21 TIF> >0x0D TIF> >0x28 TIF> >0x0D TIF> >0x28 TIF> >0x0D TIF> >0x28 TIF> >0x0D TIF> >0x21 TIF> >0x0D TIF> >0x21 TIF> >0x0D TIF> >0x28 TIF> >0x0D TIF> >0x21 TIF> >0x0D TIF> >0x21 TIF> >0x0D TIF> >0x28 TIF> >0x0D TIF> >0x21 TIF> >0x0D TIF> >0x21 TIF> >0x0D TIF> >0x28 TIF> >0x0D TIF> >0x21 TIF> >0x0D TIF> >0x21 TIF> >0x0D TIF> >0x28 TIF> >0x0D TIF> >0x21 TIF> >0x0D TIF> >0x21 TIF>
 >0x10B TIF>Found SW-DP with ID 0x0BB11477 >0x0D TIF> >0x28 TIF> >0x0D TIF> >0x28 TIF> >0x0D TIF> >0x28 TIF> >0x0D TIF> >0x28 TIF> >0x0D TIF> >0x21 TIF> >0x0D TIF> >0x28 TIF>Scanning AP map to find all available APs >0x0D TIF> >0x28 TIF> >0x0D TIF> >0x21 TIF> >0x0D TIF> >0x21 TIF> >0x0D TIF> >0x28 TIF> >0x0D TIF> >0x21 TIF> >0x0D TIF> >0x21 TIF>AP[1]: Stopped AP scan as end of AP map has been reachedAP[0]: AHB-AP (IDR: 0x04770021)Iterating through AP map to find AHB-AP to use >0x42 TIF> >0x28 TIF>
 >0x0D TIF> >0x28 TIF> >0x0D TIF> >0x21 TIF> >0x0D TIF> >0x21 TIF> >0x42 TIF> >0x28 TIF> >0x0D TIF> >0x28 TIF> >0x0D TIF> >0x28 TIF> >0x0D TIF> >0x21 TIF> >0x0D TIF> >0x21 TIF>AP[0]: Core foundAP[0]: AHB-AP ROM base: 0xE00FF000 >0x0D TIF> >0x28 TIF> >0x0D TIF> >0x28 TIF> >0x0D TIF> >0x28 TIF> >0x0D TIF> >0x21 TIF> >0x0D TIF> >0x21 TIF>CPUID register: 0x410CC200. Implementer code: 0x41 (ARM)Found Cortex-M0 r0p0, Little endian. -- CPU_ReadMem(4 bytes @ 0xE000EDF0) -- CPU_WriteMem(4 bytes @ 0xE000EDF0)
 -- CPU_ReadMem(4 bytes @ 0xE0002000)FPUnit: 4 code (BP) slots and 0 literal slots -- CPU_ReadMem(4 bytes @ 0xE000EDFC) -- CPU_WriteMem(4 bytes @ 0xE000EDFC) -- CPU_ReadMem(4 bytes @ 0xE0001000) -- CPU_WriteMem(4 bytes @ 0xE0001000)CoreSight components:ROMTbl[0] @ E00FF000 -- CPU_ReadMem(16 bytes @ 0xE00FF000) -- CPU_ReadMem(16 bytes @ 0xE000EFF0) -- CPU_ReadMem(16 bytes @ 0xE000EFE0)ROMTbl[0][0]: E000E000, CID: B105E00D, PID: 000BB008 SCS -- CPU_ReadMem(16 bytes @ 0xE0001FF0)
 -- CPU_ReadMem(16 bytes @ 0xE0001FE0)ROMTbl[0][1]: E0001000, CID: B105E00D, PID: 000BB00A DWT -- CPU_ReadMem(16 bytes @ 0xE0002FF0) -- CPU_ReadMem(16 bytes @ 0xE0002FE0)ROMTbl[0][2]: E0002000, CID: B105E00D, PID: 000BB00B FPB >0x0D TIF> >0x21 TIF>  returns 0x0BB11477 (0339ms, 0782ms total)
T0A04 001:023 JLINK_GetDLLVersion()  returns 63200 (0000ms, 0782ms total)
T0A04 001:023 JLINK_CORE_GetFound()  returns 0x60000FF (0000ms, 0782ms total)
T0A04 001:023 JLINK_GetDebugInfo(0x100 = JLINKARM_ROM_TABLE_ADDR_INDEX) -- Value=0xE00FF000  returns 0x00 (0000ms, 0782ms total)
T0A04 001:027 JLINK_ReadMem (0xE00FF000, 0x0020 Bytes, ...) -- CPU_ReadMem(32 bytes @ 0xE00FF000) - Data: 03 F0 F0 FF 03 20 F0 FF 03 30 F0 FF 00 00 00 00 ...  returns 0x00 (0002ms, 0784ms total)
T0A04 001:029 JLINK_ReadMem (0xE000EFF0, 0x0010 Bytes, ...) -- CPU_ReadMem(16 bytes @ 0xE000EFF0) - Data: 0D 00 00 00 E0 00 00 00 05 00 00 00 B1 00 00 00  returns 0x00 (0002ms, 0786ms total)
T0A04 001:031 JLINK_ReadMem (0xE000EFD0, 0x0020 Bytes, ...) -- CPU_ReadMem(32 bytes @ 0xE000EFD0) - Data: 04 00 00 00 00 00 00 00 00 00 00 00 00 00 00 00 ...  returns 0x00 (0002ms, 0788ms total)
T0A04 001:033 JLINK_ReadMem (0xE0001FF0, 0x0010 Bytes, ...) -- CPU_ReadMem(16 bytes @ 0xE0001FF0) - Data: 0D 00 00 00 E0 00 00 00 05 00 00 00 B1 00 00 00  returns 0x00 (0002ms, 0790ms total)
T0A04 001:035 JLINK_ReadMem (0xE0001FD0, 0x0020 Bytes, ...) -- CPU_ReadMem(32 bytes @ 0xE0001FD0) - Data: 04 00 00 00 00 00 00 00 00 00 00 00 00 00 00 00 ...  returns 0x00 (0003ms, 0793ms total)
T0A04 001:038 JLINK_ReadMem (0xE0002FF0, 0x0010 Bytes, ...) -- CPU_ReadMem(16 bytes @ 0xE0002FF0) - Data: 0D 00 00 00 E0 00 00 00 05 00 00 00 B1 00 00 00  returns 0x00 (0001ms, 0794ms total)
T0A04 001:039 JLINK_ReadMem (0xE0002FD0, 0x0020 Bytes, ...) -- CPU_ReadMem(32 bytes @ 0xE0002FD0) - Data: 04 00 00 00 00 00 00 00 00 00 00 00 00 00 00 00 ...  returns 0x00 (0002ms, 0796ms total)
T0A04 001:041 JLINK_ReadMemU32(0xE000ED00, 0x0001 Items, ...) -- CPU_ReadMem(4 bytes @ 0xE000ED00) - Data: 00 C2 0C 41  returns 0x01 (0002ms, 0798ms total)
T0A04 001:043 JLINK_SetResetType(JLINKARM_CM3_RESET_TYPE_NORMAL)  returns JLINKARM_CM3_RESET_TYPE_NORMAL (0000ms, 0798ms total)
T0A04 001:043 JLINK_Reset() -- CPU_WriteMem(4 bytes @ 0xE0002000) -- CPU_ReadMem(4 bytes @ 0xE000EDFC) -- CPU_WriteMem(4 bytes @ 0xE000EDFC) -- CPU_ReadMem(4 bytes @ 0xE0001000) -- CPU_WriteMem(4 bytes @ 0xE0001000) (0033ms, 0831ms total)
T0A04 001:076 JLINK_Halt()  returns 0x00 (0000ms, 0831ms total)
T0A04 001:076 JLINK_IsHalted()  returns TRUE (0000ms, 0831ms total)
T0A04 001:076 JLINK_ReadMemU32(0xE000EDF0, 0x0001 Items, ...) -- CPU_ReadMem(4 bytes @ 0xE000EDF0) - Data: 03 00 03 00  returns 0x01 (0002ms, 0833ms total)
T0A04 001:078 JLINK_WriteU32(0xE000EDF0, 0xA05F0003) -- CPU_WriteMem(4 bytes @ 0xE000EDF0)  returns 0x00 (0002ms, 0835ms total)
T0A04 001:080 JLINK_WriteU32(0xE000EDFC, 0x01000000) -- CPU_WriteMem(4 bytes @ 0xE000EDFC)  returns 0x00 (0002ms, 0837ms total)
T0A04 001:097 JLINK_GetHWStatus(...)  returns 0x00 (0002ms, 0839ms total)
T0A04 001:111 JLINK_GetNumBPUnits(Type = 0xFFFFFF00)  returns 0x04 (0000ms, 0839ms total)
T0A04 001:111 JLINK_GetNumBPUnits(Type = 0xF0)  returns 0x2000 (0000ms, 0839ms total)
T0A04 001:111 JLINK_GetNumWPUnits()  returns 0x02 (0000ms, 0839ms total)
T0A04 001:121 JLINK_GetSpeed()  returns 0x1F4 (0000ms, 0839ms total)
T0A04 001:128 JLINK_ReadMemU32(0xE000E004, 0x0001 Items, ...) -- CPU_ReadMem(4 bytes @ 0xE000E004) - Data: 00 00 00 00  returns 0x01 (0001ms, 0840ms total)
T0A04 001:129 JLINK_Halt()  returns 0x00 (0000ms, 0840ms total)
T0A04 001:129 JLINK_IsHalted()  returns TRUE (0000ms, 0840ms total)
T0A04 001:133 JLINK_WriteMem(0x20000000, 0x0170 Bytes, ...) - Data: 00 BE 0A E0 0D 78 2D 06 68 40 08 24 40 00 00 D3 ... -- CPU_WriteMem(368 bytes @ 0x20000000)  returns 0x170 (0013ms, 0853ms total)
T0A04 001:146 JLINK_WriteReg(R0, 0x08000000)  returns 0x00 (0000ms, 0853ms total)
T0A04 001:146 JLINK_WriteReg(R1, 0x02DC6C00)  returns 0x00 (0000ms, 0853ms total)
T0A04 001:146 JLINK_WriteReg(R2, 0x00000001)  returns 0x00 (0000ms, 0853ms total)
T0A04 001:146 JLINK_WriteReg(R3, 0x00000000)  returns 0x00 (0000ms, 0853ms total)
T0A04 001:146 JLINK_WriteReg(R4, 0x00000000)  returns 0x00 (0000ms, 0853ms total)
T0A04 001:146 JLINK_WriteReg(R5, 0x00000000)  returns 0x00 (0000ms, 0853ms total)
T0A04 001:146 JLINK_WriteReg(R6, 0x00000000)  returns 0x00 (0000ms, 0853ms total)
T0A04 001:146 JLINK_WriteReg(R7, 0x00000000)  returns 0x00 (0000ms, 0853ms total)
T0A04 001:146 JLINK_WriteReg(R8, 0x00000000)  returns 0x00 (0000ms, 0853ms total)
T0A04 001:146 JLINK_WriteReg(R9, 0x2000016C)  returns 0x00 (0000ms, 0853ms total)
T0A04 001:146 JLINK_WriteReg(R10, 0x00000000)  returns 0x00 (0000ms, 0853ms total)
T0A04 001:146 JLINK_WriteReg(R11, 0x00000000)  returns 0x00 (0000ms, 0853ms total)
T0A04 001:146 JLINK_WriteReg(R12, 0x00000000)  returns 0x00 (0000ms, 0853ms total)
T0A04 001:146 JLINK_WriteReg(R13 (SP), 0x20001000)  returns 0x00 (0000ms, 0853ms total)
T0A04 001:147 JLINK_WriteReg(R14, 0x20000001)  returns 0x00 (0000ms, 0854ms total)
T0A04 001:147 JLINK_WriteReg(R15 (PC), 0x20000038)  returns 0x00 (0000ms, 0854ms total)
T0A04 001:147 JLINK_WriteReg(XPSR, 0x01000000)  returns 0x00 (0000ms, 0854ms total)
T0A04 001:147 JLINK_WriteReg(MSP, 0x20001000)  returns 0x00 (0000ms, 0854ms total)
T0A04 001:147 JLINK_WriteReg(PSP, 0x20001000)  returns 0x00 (0000ms, 0854ms total)
T0A04 001:147 JLINK_WriteReg(CFBP, 0x00000000)  returns 0x00 (0000ms, 0854ms total)
T0A04 001:147 JLINK_SetBPEx(Addr = 0x20000000, Type = 0xFFFFFFF2) -- CPU_ReadMem(2 bytes @ 0x20000000)  returns 0x00000001 (0001ms, 0855ms total)
T0A04 001:148 JLINK_Go() -- CPU_WriteMem(2 bytes @ 0x20000000) -- CPU_ReadMem(4 bytes @ 0xE0001000) -- CPU_WriteMem(4 bytes @ 0xE0001000) -- CPU_WriteMem(4 bytes @ 0xE0002008) -- CPU_WriteMem(4 bytes @ 0xE000200C) -- CPU_WriteMem(4 bytes @ 0xE0002010) -- CPU_WriteMem(4 bytes @ 0xE0002014) -- CPU_WriteMem(4 bytes @ 0xE0001004) (0020ms, 0875ms total)
T0A04 001:168 JLINK_IsHalted() -- CPU_ReadMem(2 bytes @ 0x20000000)  returns TRUE (0011ms, 0886ms total)
T0A04 001:179 JLINK_ReadReg(R15 (PC))  returns 0x20000000 (0000ms, 0875ms total)
T0A04 001:179 JLINK_ClrBPEx(BPHandle = 0x00000001)  returns 0x00 (0000ms, 0875ms total)
T0A04 001:179 JLINK_ReadReg(R0)  returns 0x00000000 (0000ms, 0875ms total)
T0A04 001:179 JLINK_WriteReg(R0, 0x08000000)  returns 0x00 (0001ms, 0876ms total)
T0A04 001:180 JLINK_WriteReg(R1, 0x00000400)  returns 0x00 (0000ms, 0876ms total)
T0A04 001:180 JLINK_WriteReg(R2, 0x000000FF)  returns 0x00 (0000ms, 0876ms total)
T0A04 001:180 JLINK_WriteReg(R3, 0x00000000)  returns 0x00 (0000ms, 0876ms total)
T0A04 001:180 JLINK_WriteReg(R4, 0x00000000)  returns 0x00 (0000ms, 0876ms total)
T0A04 001:180 JLINK_WriteReg(R5, 0x00000000)  returns 0x00 (0000ms, 0876ms total)
T0A04 001:180 JLINK_WriteReg(R6, 0x00000000)  returns 0x00 (0000ms, 0876ms total)
T0A04 001:180 JLINK_WriteReg(R7, 0x00000000)  returns 0x00 (0000ms, 0876ms total)
T0A04 001:180 JLINK_WriteReg(R8, 0x00000000)  returns 0x00 (0000ms, 0876ms total)
T0A04 001:180 JLINK_WriteReg(R9, 0x2000016C)  returns 0x00 (0000ms, 0876ms total)
T0A04 001:180 JLINK_WriteReg(R10, 0x00000000)  returns 0x00 (0000ms, 0876ms total)
T0A04 001:180 JLINK_WriteReg(R11, 0x00000000)  returns 0x00 (0000ms, 0876ms total)
T0A04 001:180 JLINK_WriteReg(R12, 0x00000000)  returns 0x00 (0000ms, 0876ms total)
T0A04 001:180 JLINK_WriteReg(R13 (SP), 0x20001000)  returns 0x00 (0000ms, 0876ms total)
T0A04 001:180 JLINK_WriteReg(R14, 0x20000001)  returns 0x00 (0000ms, 0876ms total)
T0A04 001:180 JLINK_WriteReg(R15 (PC), 0x20000020)  returns 0x00 (0000ms, 0876ms total)
T0A04 001:180 JLINK_WriteReg(XPSR, 0x01000000)  returns 0x00 (0000ms, 0876ms total)
T0A04 001:180 JLINK_WriteReg(MSP, 0x20001000)  returns 0x00 (0000ms, 0876ms total)
T0A04 001:180 JLINK_WriteReg(PSP, 0x20001000)  returns 0x00 (0000ms, 0876ms total)
T0A04 001:180 JLINK_WriteReg(CFBP, 0x00000000)  returns 0x00 (0000ms, 0876ms total)
T0A04 001:180 JLINK_SetBPEx(Addr = 0x20000000, Type = 0xFFFFFFF2)  returns 0x00000002 (0000ms, 0876ms total)
T0A04 001:180 JLINK_Go() -- CPU_ReadMem(4 bytes @ 0xE0001000) -- CPU_WriteMem(4 bytes @ 0xE0001000) (0008ms, 0884ms total)
T0A04 001:188 JLINK_IsHalted() -- CPU_ReadMem(2 bytes @ 0x20000000)  returns TRUE (0011ms, 0895ms total)
T0A04 001:200 JLINK_ReadReg(R15 (PC))  returns 0x20000000 (0000ms, 0884ms total)
T0A04 001:200 JLINK_ClrBPEx(BPHandle = 0x00000002)  returns 0x00 (0000ms, 0884ms total)
T0A04 001:200 JLINK_ReadReg(R0)  returns 0x00000001 (0000ms, 0884ms total)
T0A04 001:200 JLINK_WriteReg(R0, 0x08000000)  returns 0x00 (0000ms, 0884ms total)
T0A04 001:200 JLINK_WriteReg(R1, 0x00000400)  returns 0x00 (0000ms, 0884ms total)
T0A04 001:200 JLINK_WriteReg(R2, 0x000000FF)  returns 0x00 (0000ms, 0884ms total)
T0A04 001:200 JLINK_WriteReg(R3, 0x00000000)  returns 0x00 (0000ms, 0884ms total)
T0A04 001:200 JLINK_WriteReg(R4, 0x00000000)  returns 0x00 (0000ms, 0884ms total)
T0A04 001:200 JLINK_WriteReg(R5, 0x00000000)  returns 0x00 (0000ms, 0884ms total)
T0A04 001:200 JLINK_WriteReg(R6, 0x00000000)  returns 0x00 (0000ms, 0884ms total)
T0A04 001:200 JLINK_WriteReg(R7, 0x00000000)  returns 0x00 (0000ms, 0884ms total)
T0A04 001:200 JLINK_WriteReg(R8, 0x00000000)  returns 0x00 (0000ms, 0884ms total)
T0A04 001:200 JLINK_WriteReg(R9, 0x2000016C)  returns 0x00 (0000ms, 0884ms total)
T0A04 001:200 JLINK_WriteReg(R10, 0x00000000)  returns 0x00 (0000ms, 0884ms total)
T0A04 001:200 JLINK_WriteReg(R11, 0x00000000)  returns 0x00 (0000ms, 0884ms total)
T0A04 001:200 JLINK_WriteReg(R12, 0x00000000)  returns 0x00 (0000ms, 0884ms total)
T0A04 001:200 JLINK_WriteReg(R13 (SP), 0x20001000)  returns 0x00 (0000ms, 0884ms total)
T0A04 001:200 JLINK_WriteReg(R14, 0x20000001)  returns 0x00 (0000ms, 0884ms total)
T0A04 001:200 JLINK_WriteReg(R15 (PC), 0x200000B8)  returns 0x00 (0000ms, 0884ms total)
T0A04 001:200 JLINK_WriteReg(XPSR, 0x01000000)  returns 0x00 (0000ms, 0884ms total)
T0A04 001:200 JLINK_WriteReg(MSP, 0x20001000)  returns 0x00 (0000ms, 0884ms total)
T0A04 001:200 JLINK_WriteReg(PSP, 0x20001000)  returns 0x00 (0001ms, 0885ms total)
T0A04 001:201 JLINK_WriteReg(CFBP, 0x00000000)  returns 0x00 (0000ms, 0885ms total)
T0A04 001:201 JLINK_SetBPEx(Addr = 0x20000000, Type = 0xFFFFFFF2)  returns 0x00000003 (0000ms, 0885ms total)
T0A04 001:201 JLINK_Go() -- CPU_ReadMem(4 bytes @ 0xE0001000) -- CPU_WriteMem(4 bytes @ 0xE0001000) (0007ms, 0892ms total)
T0A04 001:208 JLINK_IsHalted()  returns FALSE (0002ms, 0894ms total)
T0A04 001:263 JLINK_IsHalted() -- CPU_ReadMem(2 bytes @ 0x20000000)  returns TRUE (0010ms, 0902ms total)
T0A04 001:273 JLINK_ReadReg(R15 (PC))  returns 0x20000000 (0000ms, 0892ms total)
T0A04 001:273 JLINK_ClrBPEx(BPHandle = 0x00000003)  returns 0x00 (0000ms, 0892ms total)
T0A04 001:273 JLINK_ReadReg(R0)  returns 0x00000000 (0000ms, 0892ms total)
T0A04 001:274 JLINK_WriteReg(R0, 0x08000400)  returns 0x00 (0000ms, 0892ms total)
T0A04 001:274 JLINK_WriteReg(R1, 0x00000400)  returns 0x00 (0001ms, 0893ms total)
T0A04 001:275 JLINK_WriteReg(R2, 0x000000FF)  returns 0x00 (0000ms, 0893ms total)
T0A04 001:275 JLINK_WriteReg(R3, 0x00000000)  returns 0x00 (0000ms, 0893ms total)
T0A04 001:275 JLINK_WriteReg(R4, 0x00000000)  returns 0x00 (0000ms, 0893ms total)
T0A04 001:275 JLINK_WriteReg(R5, 0x00000000)  returns 0x00 (0000ms, 0893ms total)
T0A04 001:275 JLINK_WriteReg(R6, 0x00000000)  returns 0x00 (0000ms, 0893ms total)
T0A04 001:275 JLINK_WriteReg(R7, 0x00000000)  returns 0x00 (0000ms, 0893ms total)
T0A04 001:275 JLINK_WriteReg(R8, 0x00000000)  returns 0x00 (0000ms, 0893ms total)
T0A04 001:275 JLINK_WriteReg(R9, 0x2000016C)  returns 0x00 (0000ms, 0893ms total)
T0A04 001:275 JLINK_WriteReg(R10, 0x00000000)  returns 0x00 (0002ms, 0895ms total)
T0A04 001:277 JLINK_WriteReg(R11, 0x00000000)  returns 0x00 (0000ms, 0895ms total)
T0A04 001:277 JLINK_WriteReg(R12, 0x00000000)  returns 0x00 (0000ms, 0895ms total)
T0A04 001:277 JLINK_WriteReg(R13 (SP), 0x20001000)  returns 0x00 (0000ms, 0895ms total)
T0A04 001:277 JLINK_WriteReg(R14, 0x20000001)  returns 0x00 (0000ms, 0895ms total)
T0A04 001:277 JLINK_WriteReg(R15 (PC), 0x20000020)  returns 0x00 (0000ms, 0895ms total)
T0A04 001:277 JLINK_WriteReg(XPSR, 0x01000000)  returns 0x00 (0000ms, 0895ms total)
T0A04 001:277 JLINK_WriteReg(MSP, 0x20001000)  returns 0x00 (0000ms, 0895ms total)
T0A04 001:277 JLINK_WriteReg(PSP, 0x20001000)  returns 0x00 (0000ms, 0895ms total)
T0A04 001:277 JLINK_WriteReg(CFBP, 0x00000000)  returns 0x00 (0000ms, 0895ms total)
T0A04 001:277 JLINK_SetBPEx(Addr = 0x20000000, Type = 0xFFFFFFF2)  returns 0x00000004 (0000ms, 0895ms total)
T0A04 001:277 JLINK_Go() -- CPU_ReadMem(4 bytes @ 0xE0001000) -- CPU_WriteMem(4 bytes @ 0xE0001000) (0008ms, 0903ms total)
T0A04 001:285 JLINK_IsHalted() -- CPU_ReadMem(2 bytes @ 0x20000000)  returns TRUE (0011ms, 0914ms total)
T0A04 001:296 JLINK_ReadReg(R15 (PC))  returns 0x20000000 (0000ms, 0903ms total)
T0A04 001:296 JLINK_ClrBPEx(BPHandle = 0x00000004)  returns 0x00 (0000ms, 0903ms total)
T0A04 001:296 JLINK_ReadReg(R0)  returns 0x00000001 (0000ms, 0903ms total)
T0A04 001:296 JLINK_WriteReg(R0, 0x08000400)  returns 0x00 (0001ms, 0904ms total)
T0A04 001:297 JLINK_WriteReg(R1, 0x00000400)  returns 0x00 (0000ms, 0904ms total)
T0A04 001:297 JLINK_WriteReg(R2, 0x000000FF)  returns 0x00 (0000ms, 0904ms total)
T0A04 001:297 JLINK_WriteReg(R3, 0x00000000)  returns 0x00 (0000ms, 0904ms total)
T0A04 001:297 JLINK_WriteReg(R4, 0x00000000)  returns 0x00 (0000ms, 0904ms total)
T0A04 001:297 JLINK_WriteReg(R5, 0x00000000)  returns 0x00 (0000ms, 0904ms total)
T0A04 001:297 JLINK_WriteReg(R6, 0x00000000)  returns 0x00 (0000ms, 0904ms total)
T0A04 001:297 JLINK_WriteReg(R7, 0x00000000)  returns 0x00 (0000ms, 0904ms total)
T0A04 001:297 JLINK_WriteReg(R8, 0x00000000)  returns 0x00 (0000ms, 0904ms total)
T0A04 001:297 JLINK_WriteReg(R9, 0x2000016C)  returns 0x00 (0000ms, 0904ms total)
T0A04 001:297 JLINK_WriteReg(R10, 0x00000000)  returns 0x00 (0000ms, 0904ms total)
T0A04 001:297 JLINK_WriteReg(R11, 0x00000000)  returns 0x00 (0000ms, 0904ms total)
T0A04 001:297 JLINK_WriteReg(R12, 0x00000000)  returns 0x00 (0000ms, 0904ms total)
T0A04 001:297 JLINK_WriteReg(R13 (SP), 0x20001000)  returns 0x00 (0000ms, 0904ms total)
T0A04 001:297 JLINK_WriteReg(R14, 0x20000001)  returns 0x00 (0000ms, 0904ms total)
T0A04 001:297 JLINK_WriteReg(R15 (PC), 0x200000B8)  returns 0x00 (0000ms, 0904ms total)
T0A04 001:297 JLINK_WriteReg(XPSR, 0x01000000)  returns 0x00 (0000ms, 0904ms total)
T0A04 001:297 JLINK_WriteReg(MSP, 0x20001000)  returns 0x00 (0000ms, 0904ms total)
T0A04 001:297 JLINK_WriteReg(PSP, 0x20001000)  returns 0x00 (0000ms, 0904ms total)
T0A04 001:297 JLINK_WriteReg(CFBP, 0x00000000)  returns 0x00 (0000ms, 0904ms total)
T0A04 001:297 JLINK_SetBPEx(Addr = 0x20000000, Type = 0xFFFFFFF2)  returns 0x00000005 (0000ms, 0904ms total)
T0A04 001:297 JLINK_Go() -- CPU_ReadMem(4 bytes @ 0xE0001000) -- CPU_WriteMem(4 bytes @ 0xE0001000) (0008ms, 0912ms total)
T0A04 001:305 JLINK_IsHalted()  returns FALSE (0002ms, 0914ms total)
T0A04 001:320 JLINK_IsHalted()  returns FALSE (0001ms, 0913ms total)
T0A04 001:322 JLINK_IsHalted()  returns FALSE (0001ms, 0913ms total)
T0A04 001:329 JLINK_IsHalted() -- CPU_ReadMem(2 bytes @ 0x20000000)  returns TRUE (0011ms, 0923ms total)
T0A04 001:340 JLINK_ReadReg(R15 (PC))  returns 0x20000000 (0000ms, 0912ms total)
T0A04 001:340 JLINK_ClrBPEx(BPHandle = 0x00000005)  returns 0x00 (0000ms, 0912ms total)
T0A04 001:340 JLINK_ReadReg(R0)  returns 0x00000000 (0000ms, 0912ms total)
T0A04 001:341 JLINK_WriteReg(R0, 0x08000800)  returns 0x00 (0000ms, 0912ms total)
T0A04 001:341 JLINK_WriteReg(R1, 0x00000400)  returns 0x00 (0000ms, 0912ms total)
T0A04 001:341 JLINK_WriteReg(R2, 0x000000FF)  returns 0x00 (0000ms, 0912ms total)
T0A04 001:341 JLINK_WriteReg(R3, 0x00000000)  returns 0x00 (0000ms, 0912ms total)
T0A04 001:341 JLINK_WriteReg(R4, 0x00000000)  returns 0x00 (0000ms, 0912ms total)
T0A04 001:341 JLINK_WriteReg(R5, 0x00000000)  returns 0x00 (0000ms, 0912ms total)
T0A04 001:341 JLINK_WriteReg(R6, 0x00000000)  returns 0x00 (0000ms, 0912ms total)
T0A04 001:341 JLINK_WriteReg(R7, 0x00000000)  returns 0x00 (0000ms, 0912ms total)
T0A04 001:341 JLINK_WriteReg(R8, 0x00000000)  returns 0x00 (0000ms, 0912ms total)
T0A04 001:341 JLINK_WriteReg(R9, 0x2000016C)  returns 0x00 (0000ms, 0912ms total)
T0A04 001:341 JLINK_WriteReg(R10, 0x00000000)  returns 0x00 (0001ms, 0913ms total)
T0A04 001:342 JLINK_WriteReg(R11, 0x00000000)  returns 0x00 (0000ms, 0913ms total)
T0A04 001:342 JLINK_WriteReg(R12, 0x00000000)  returns 0x00 (0000ms, 0913ms total)
T0A04 001:342 JLINK_WriteReg(R13 (SP), 0x20001000)  returns 0x00 (0000ms, 0913ms total)
T0A04 001:342 JLINK_WriteReg(R14, 0x20000001)  returns 0x00 (0000ms, 0913ms total)
T0A04 001:342 JLINK_WriteReg(R15 (PC), 0x20000020)  returns 0x00 (0000ms, 0913ms total)
T0A04 001:342 JLINK_WriteReg(XPSR, 0x01000000)  returns 0x00 (0000ms, 0913ms total)
T0A04 001:342 JLINK_WriteReg(MSP, 0x20001000)  returns 0x00 (0000ms, 0913ms total)
T0A04 001:342 JLINK_WriteReg(PSP, 0x20001000)  returns 0x00 (0000ms, 0913ms total)
T0A04 001:342 JLINK_WriteReg(CFBP, 0x00000000)  returns 0x00 (0000ms, 0913ms total)
T0A04 001:342 JLINK_SetBPEx(Addr = 0x20000000, Type = 0xFFFFFFF2)  returns 0x00000006 (0000ms, 0913ms total)
T0A04 001:342 JLINK_Go() -- CPU_ReadMem(4 bytes @ 0xE0001000) -- CPU_WriteMem(4 bytes @ 0xE0001000) (0008ms, 0921ms total)
T0A04 001:350 JLINK_IsHalted() -- CPU_ReadMem(2 bytes @ 0x20000000)  returns TRUE (0011ms, 0932ms total)
T0A04 001:361 JLINK_ReadReg(R15 (PC))  returns 0x20000000 (0000ms, 0921ms total)
T0A04 001:361 JLINK_ClrBPEx(BPHandle = 0x00000006)  returns 0x00 (0000ms, 0921ms total)
T0A04 001:361 JLINK_ReadReg(R0)  returns 0x00000001 (0000ms, 0921ms total)
T0A04 001:361 JLINK_WriteReg(R0, 0x08000800)  returns 0x00 (0000ms, 0921ms total)
T0A04 001:361 JLINK_WriteReg(R1, 0x00000400)  returns 0x00 (0001ms, 0922ms total)
T0A04 001:362 JLINK_WriteReg(R2, 0x000000FF)  returns 0x00 (0000ms, 0922ms total)
T0A04 001:362 JLINK_WriteReg(R3, 0x00000000)  returns 0x00 (0000ms, 0922ms total)
T0A04 001:362 JLINK_WriteReg(R4, 0x00000000)  returns 0x00 (0000ms, 0922ms total)
T0A04 001:362 JLINK_WriteReg(R5, 0x00000000)  returns 0x00 (0000ms, 0922ms total)
T0A04 001:362 JLINK_WriteReg(R6, 0x00000000)  returns 0x00 (0000ms, 0922ms total)
T0A04 001:362 JLINK_WriteReg(R7, 0x00000000)  returns 0x00 (0000ms, 0922ms total)
T0A04 001:362 JLINK_WriteReg(R8, 0x00000000)  returns 0x00 (0000ms, 0922ms total)
T0A04 001:362 JLINK_WriteReg(R9, 0x2000016C)  returns 0x00 (0000ms, 0922ms total)
T0A04 001:362 JLINK_WriteReg(R10, 0x00000000)  returns 0x00 (0000ms, 0922ms total)
T0A04 001:362 JLINK_WriteReg(R11, 0x00000000)  returns 0x00 (0000ms, 0922ms total)
T0A04 001:362 JLINK_WriteReg(R12, 0x00000000)  returns 0x00 (0000ms, 0922ms total)
T0A04 001:362 JLINK_WriteReg(R13 (SP), 0x20001000)  returns 0x00 (0000ms, 0922ms total)
T0A04 001:362 JLINK_WriteReg(R14, 0x20000001)  returns 0x00 (0000ms, 0922ms total)
T0A04 001:362 JLINK_WriteReg(R15 (PC), 0x200000B8)  returns 0x00 (0000ms, 0922ms total)
T0A04 001:362 JLINK_WriteReg(XPSR, 0x01000000)  returns 0x00 (0000ms, 0922ms total)
T0A04 001:362 JLINK_WriteReg(MSP, 0x20001000)  returns 0x00 (0000ms, 0922ms total)
T0A04 001:362 JLINK_WriteReg(PSP, 0x20001000)  returns 0x00 (0001ms, 0923ms total)
T0A04 001:363 JLINK_WriteReg(CFBP, 0x00000000)  returns 0x00 (0000ms, 0923ms total)
T0A04 001:363 JLINK_SetBPEx(Addr = 0x20000000, Type = 0xFFFFFFF2)  returns 0x00000007 (0000ms, 0923ms total)
T0A04 001:363 JLINK_Go() -- CPU_ReadMem(4 bytes @ 0xE0001000) -- CPU_WriteMem(4 bytes @ 0xE0001000) (0007ms, 0930ms total)
T0A04 001:370 JLINK_IsHalted()  returns FALSE (0002ms, 0932ms total)
T0A04 001:376 JLINK_IsHalted()  returns FALSE (0001ms, 0931ms total)
T0A04 001:378 JLINK_IsHalted()  returns FALSE (0001ms, 0931ms total)
T0A04 001:380 JLINK_IsHalted()  returns FALSE (0001ms, 0931ms total)
T0A04 001:382 JLINK_IsHalted()  returns FALSE (0001ms, 0931ms total)
T0A04 001:384 JLINK_IsHalted()  returns FALSE (0001ms, 0931ms total)
T0A04 001:386 JLINK_IsHalted()  returns FALSE (0001ms, 0931ms total)
T0A04 001:388 JLINK_IsHalted()  returns FALSE (0001ms, 0931ms total)
T0A04 001:398 JLINK_IsHalted() -- CPU_ReadMem(2 bytes @ 0x20000000)  returns TRUE (0010ms, 0940ms total)
T0A04 001:408 JLINK_ReadReg(R15 (PC))  returns 0x20000000 (0000ms, 0930ms total)
T0A04 001:408 JLINK_ClrBPEx(BPHandle = 0x00000007)  returns 0x00 (0000ms, 0930ms total)
T0A04 001:408 JLINK_ReadReg(R0)  returns 0x00000000 (0000ms, 0930ms total)
T0A04 001:409 JLINK_WriteReg(R0, 0x08000C00)  returns 0x00 (0000ms, 0930ms total)
T0A04 001:409 JLINK_WriteReg(R1, 0x00000400)  returns 0x00 (0000ms, 0930ms total)
T0A04 001:409 JLINK_WriteReg(R2, 0x000000FF)  returns 0x00 (0001ms, 0931ms total)
T0A04 001:410 JLINK_WriteReg(R3, 0x00000000)  returns 0x00 (0000ms, 0931ms total)
T0A04 001:410 JLINK_WriteReg(R4, 0x00000000)  returns 0x00 (0000ms, 0931ms total)
T0A04 001:410 JLINK_WriteReg(R5, 0x00000000)  returns 0x00 (0000ms, 0931ms total)
T0A04 001:410 JLINK_WriteReg(R6, 0x00000000)  returns 0x00 (0000ms, 0931ms total)
T0A04 001:410 JLINK_WriteReg(R7, 0x00000000)  returns 0x00 (0000ms, 0931ms total)
T0A04 001:410 JLINK_WriteReg(R8, 0x00000000)  returns 0x00 (0000ms, 0931ms total)
T0A04 001:410 JLINK_WriteReg(R9, 0x2000016C)  returns 0x00 (0000ms, 0931ms total)
T0A04 001:410 JLINK_WriteReg(R10, 0x00000000)  returns 0x00 (0000ms, 0931ms total)
T0A04 001:410 JLINK_WriteReg(R11, 0x00000000)  returns 0x00 (0000ms, 0931ms total)
T0A04 001:410 JLINK_WriteReg(R12, 0x00000000)  returns 0x00 (0000ms, 0931ms total)
T0A04 001:410 JLINK_WriteReg(R13 (SP), 0x20001000)  returns 0x00 (0000ms, 0931ms total)
T0A04 001:410 JLINK_WriteReg(R14, 0x20000001)  returns 0x00 (0000ms, 0931ms total)
T0A04 001:410 JLINK_WriteReg(R15 (PC), 0x20000020)  returns 0x00 (0000ms, 0931ms total)
T0A04 001:410 JLINK_WriteReg(XPSR, 0x01000000)  returns 0x00 (0000ms, 0931ms total)
T0A04 001:410 JLINK_WriteReg(MSP, 0x20001000)  returns 0x00 (0000ms, 0931ms total)
T0A04 001:410 JLINK_WriteReg(PSP, 0x20001000)  returns 0x00 (0000ms, 0931ms total)
T0A04 001:410 JLINK_WriteReg(CFBP, 0x00000000)  returns 0x00 (0001ms, 0932ms total)
T0A04 001:411 JLINK_SetBPEx(Addr = 0x20000000, Type = 0xFFFFFFF2)  returns 0x00000008 (0000ms, 0932ms total)
T0A04 001:411 JLINK_Go() -- CPU_ReadMem(4 bytes @ 0xE0001000) -- CPU_WriteMem(4 bytes @ 0xE0001000) (0007ms, 0939ms total)
T0A04 001:418 JLINK_IsHalted() -- CPU_ReadMem(2 bytes @ 0x20000000)  returns TRUE (0011ms, 0950ms total)
T0A04 001:429 JLINK_ReadReg(R15 (PC))  returns 0x20000000 (0000ms, 0939ms total)
T0A04 001:429 JLINK_ClrBPEx(BPHandle = 0x00000008)  returns 0x00 (0000ms, 0939ms total)
T0A04 001:429 JLINK_ReadReg(R0)  returns 0x00000001 (0000ms, 0939ms total)
T0A04 001:429 JLINK_WriteReg(R0, 0x08000C00)  returns 0x00 (0000ms, 0939ms total)
T0A04 001:429 JLINK_WriteReg(R1, 0x00000400)  returns 0x00 (0000ms, 0939ms total)
T0A04 001:429 JLINK_WriteReg(R2, 0x000000FF)  returns 0x00 (0000ms, 0939ms total)
T0A04 001:429 JLINK_WriteReg(R3, 0x00000000)  returns 0x00 (0000ms, 0939ms total)
T0A04 001:429 JLINK_WriteReg(R4, 0x00000000)  returns 0x00 (0000ms, 0939ms total)
T0A04 001:429 JLINK_WriteReg(R5, 0x00000000)  returns 0x00 (0000ms, 0939ms total)
T0A04 001:429 JLINK_WriteReg(R6, 0x00000000)  returns 0x00 (0000ms, 0939ms total)
T0A04 001:429 JLINK_WriteReg(R7, 0x00000000)  returns 0x00 (0001ms, 0940ms total)
T0A04 001:430 JLINK_WriteReg(R8, 0x00000000)  returns 0x00 (0000ms, 0940ms total)
T0A04 001:430 JLINK_WriteReg(R9, 0x2000016C)  returns 0x00 (0000ms, 0940ms total)
T0A04 001:430 JLINK_WriteReg(R10, 0x00000000)  returns 0x00 (0000ms, 0940ms total)
T0A04 001:430 JLINK_WriteReg(R11, 0x00000000)  returns 0x00 (0000ms, 0940ms total)
T0A04 001:430 JLINK_WriteReg(R12, 0x00000000)  returns 0x00 (0000ms, 0940ms total)
T0A04 001:430 JLINK_WriteReg(R13 (SP), 0x20001000)  returns 0x00 (0000ms, 0940ms total)
T0A04 001:430 JLINK_WriteReg(R14, 0x20000001)  returns 0x00 (0000ms, 0940ms total)
T0A04 001:430 JLINK_WriteReg(R15 (PC), 0x200000B8)  returns 0x00 (0000ms, 0940ms total)
T0A04 001:430 JLINK_WriteReg(XPSR, 0x01000000)  returns 0x00 (0000ms, 0940ms total)
T0A04 001:430 JLINK_WriteReg(MSP, 0x20001000)  returns 0x00 (0000ms, 0940ms total)
T0A04 001:430 JLINK_WriteReg(PSP, 0x20001000)  returns 0x00 (0000ms, 0940ms total)
T0A04 001:430 JLINK_WriteReg(CFBP, 0x00000000)  returns 0x00 (0000ms, 0940ms total)
T0A04 001:430 JLINK_SetBPEx(Addr = 0x20000000, Type = 0xFFFFFFF2)  returns 0x00000009 (0000ms, 0940ms total)
T0A04 001:430 JLINK_Go() -- CPU_ReadMem(4 bytes @ 0xE0001000) -- CPU_WriteMem(4 bytes @ 0xE0001000) (0008ms, 0948ms total)
T0A04 001:438 JLINK_IsHalted()  returns FALSE (0002ms, 0950ms total)
T0A04 001:441 JLINK_IsHalted()  returns FALSE (0001ms, 0949ms total)
T0A04 001:443 JLINK_IsHalted()  returns FALSE (0001ms, 0949ms total)
T0A04 001:445 JLINK_IsHalted()  returns FALSE (0001ms, 0949ms total)
T0A04 001:447 JLINK_IsHalted()  returns FALSE (0001ms, 0949ms total)
T0A04 001:449 JLINK_IsHalted()  returns FALSE (0001ms, 0949ms total)
T0A04 001:451 JLINK_IsHalted()  returns FALSE (0001ms, 0949ms total)
T0A04 001:453 JLINK_IsHalted()  returns FALSE (0001ms, 0949ms total)
T0A04 001:455 JLINK_IsHalted()  returns FALSE (0001ms, 0949ms total)
T0A04 001:457 JLINK_IsHalted()  returns FALSE (0001ms, 0949ms total)
T0A04 001:459 JLINK_IsHalted() -- CPU_ReadMem(2 bytes @ 0x20000000)  returns TRUE (0010ms, 0958ms total)
T0A04 001:469 JLINK_ReadReg(R15 (PC))  returns 0x20000000 (0000ms, 0948ms total)
T0A04 001:469 JLINK_ClrBPEx(BPHandle = 0x00000009)  returns 0x00 (0000ms, 0948ms total)
T0A04 001:469 JLINK_ReadReg(R0)  returns 0x00000000 (0001ms, 0949ms total)
T0A04 001:470 JLINK_WriteReg(R0, 0x08001000)  returns 0x00 (0000ms, 0949ms total)
T0A04 001:470 JLINK_WriteReg(R1, 0x00000400)  returns 0x00 (0001ms, 0950ms total)
T0A04 001:471 JLINK_WriteReg(R2, 0x000000FF)  returns 0x00 (0000ms, 0950ms total)
T0A04 001:471 JLINK_WriteReg(R3, 0x00000000)  returns 0x00 (0000ms, 0950ms total)
T0A04 001:471 JLINK_WriteReg(R4, 0x00000000)  returns 0x00 (0000ms, 0950ms total)
T0A04 001:471 JLINK_WriteReg(R5, 0x00000000)  returns 0x00 (0000ms, 0950ms total)
T0A04 001:471 JLINK_WriteReg(R6, 0x00000000)  returns 0x00 (0000ms, 0950ms total)
T0A04 001:471 JLINK_WriteReg(R7, 0x00000000)  returns 0x00 (0000ms, 0950ms total)
T0A04 001:471 JLINK_WriteReg(R8, 0x00000000)  returns 0x00 (0000ms, 0950ms total)
T0A04 001:471 JLINK_WriteReg(R9, 0x2000016C)  returns 0x00 (0000ms, 0950ms total)
T0A04 001:471 JLINK_WriteReg(R10, 0x00000000)  returns 0x00 (0000ms, 0950ms total)
T0A04 001:471 JLINK_WriteReg(R11, 0x00000000)  returns 0x00 (0000ms, 0950ms total)
T0A04 001:471 JLINK_WriteReg(R12, 0x00000000)  returns 0x00 (0000ms, 0950ms total)
T0A04 001:471 JLINK_WriteReg(R13 (SP), 0x20001000)  returns 0x00 (0000ms, 0950ms total)
T0A04 001:471 JLINK_WriteReg(R14, 0x20000001)  returns 0x00 (0000ms, 0950ms total)
T0A04 001:471 JLINK_WriteReg(R15 (PC), 0x20000020)  returns 0x00 (0000ms, 0950ms total)
T0A04 001:471 JLINK_WriteReg(XPSR, 0x01000000)  returns 0x00 (0000ms, 0950ms total)
T0A04 001:471 JLINK_WriteReg(MSP, 0x20001000)  returns 0x00 (0001ms, 0951ms total)
T0A04 001:472 JLINK_WriteReg(PSP, 0x20001000)  returns 0x00 (0000ms, 0951ms total)
T0A04 001:472 JLINK_WriteReg(CFBP, 0x00000000)  returns 0x00 (0000ms, 0951ms total)
T0A04 001:472 JLINK_SetBPEx(Addr = 0x20000000, Type = 0xFFFFFFF2)  returns 0x0000000A (0000ms, 0951ms total)
T0A04 001:472 JLINK_Go() -- CPU_ReadMem(4 bytes @ 0xE0001000) -- CPU_WriteMem(4 bytes @ 0xE0001000) (0008ms, 0959ms total)
T0A04 001:480 JLINK_IsHalted() -- CPU_ReadMem(2 bytes @ 0x20000000)  returns TRUE (0010ms, 0969ms total)
T0A04 001:490 JLINK_ReadReg(R15 (PC))  returns 0x20000000 (0000ms, 0959ms total)
T0A04 001:490 JLINK_ClrBPEx(BPHandle = 0x0000000A)  returns 0x00 (0000ms, 0959ms total)
T0A04 001:490 JLINK_ReadReg(R0)  returns 0x00000001 (0000ms, 0959ms total)
T0A04 001:490 JLINK_WriteReg(R0, 0x08001000)  returns 0x00 (0000ms, 0959ms total)
T0A04 001:490 JLINK_WriteReg(R1, 0x00000400)  returns 0x00 (0000ms, 0959ms total)
T0A04 001:490 JLINK_WriteReg(R2, 0x000000FF)  returns 0x00 (0000ms, 0959ms total)
T0A04 001:490 JLINK_WriteReg(R3, 0x00000000)  returns 0x00 (0000ms, 0959ms total)
T0A04 001:490 JLINK_WriteReg(R4, 0x00000000)  returns 0x00 (0001ms, 0960ms total)
T0A04 001:491 JLINK_WriteReg(R5, 0x00000000)  returns 0x00 (0000ms, 0960ms total)
T0A04 001:491 JLINK_WriteReg(R6, 0x00000000)  returns 0x00 (0000ms, 0960ms total)
T0A04 001:491 JLINK_WriteReg(R7, 0x00000000)  returns 0x00 (0000ms, 0960ms total)
T0A04 001:491 JLINK_WriteReg(R8, 0x00000000)  returns 0x00 (0000ms, 0960ms total)
T0A04 001:491 JLINK_WriteReg(R9, 0x2000016C)  returns 0x00 (0000ms, 0960ms total)
T0A04 001:491 JLINK_WriteReg(R10, 0x00000000)  returns 0x00 (0000ms, 0960ms total)
T0A04 001:491 JLINK_WriteReg(R11, 0x00000000)  returns 0x00 (0000ms, 0960ms total)
T0A04 001:491 JLINK_WriteReg(R12, 0x00000000)  returns 0x00 (0000ms, 0960ms total)
T0A04 001:491 JLINK_WriteReg(R13 (SP), 0x20001000)  returns 0x00 (0000ms, 0960ms total)
T0A04 001:491 JLINK_WriteReg(R14, 0x20000001)  returns 0x00 (0000ms, 0960ms total)
T0A04 001:491 JLINK_WriteReg(R15 (PC), 0x200000B8)  returns 0x00 (0000ms, 0960ms total)
T0A04 001:491 JLINK_WriteReg(XPSR, 0x01000000)  returns 0x00 (0000ms, 0960ms total)
T0A04 001:491 JLINK_WriteReg(MSP, 0x20001000)  returns 0x00 (0000ms, 0960ms total)
T0A04 001:491 JLINK_WriteReg(PSP, 0x20001000)  returns 0x00 (0000ms, 0960ms total)
T0A04 001:491 JLINK_WriteReg(CFBP, 0x00000000)  returns 0x00 (0000ms, 0960ms total)
T0A04 001:491 JLINK_SetBPEx(Addr = 0x20000000, Type = 0xFFFFFFF2)  returns 0x0000000B (0000ms, 0960ms total)
T0A04 001:491 JLINK_Go() -- CPU_ReadMem(4 bytes @ 0xE0001000) -- CPU_WriteMem(4 bytes @ 0xE0001000) (0008ms, 0968ms total)
T0A04 001:499 JLINK_IsHalted()  returns FALSE (0002ms, 0970ms total)
T0A04 001:511 JLINK_IsHalted()  returns FALSE (0001ms, 0969ms total)
T0A04 001:513 JLINK_IsHalted()  returns FALSE (0001ms, 0969ms total)
T0A04 001:515 JLINK_IsHalted()  returns FALSE (0001ms, 0969ms total)
T0A04 001:517 JLINK_IsHalted()  returns FALSE (0001ms, 0969ms total)
T0A04 001:519 JLINK_IsHalted()  returns FALSE (0001ms, 0969ms total)
T0A04 001:521 JLINK_IsHalted() -- CPU_ReadMem(2 bytes @ 0x20000000)  returns TRUE (0010ms, 0978ms total)
T0A04 001:531 JLINK_ReadReg(R15 (PC))  returns 0x20000000 (0000ms, 0968ms total)
T0A04 001:531 JLINK_ClrBPEx(BPHandle = 0x0000000B)  returns 0x00 (0000ms, 0968ms total)
T0A04 001:531 JLINK_ReadReg(R0)  returns 0x00000000 (0000ms, 0968ms total)
T0A04 001:532 JLINK_WriteReg(R0, 0x08001400)  returns 0x00 (0000ms, 0968ms total)
T0A04 001:532 JLINK_WriteReg(R1, 0x00000400)  returns 0x00 (0000ms, 0968ms total)
T0A04 001:532 JLINK_WriteReg(R2, 0x000000FF)  returns 0x00 (0001ms, 0969ms total)
T0A04 001:533 JLINK_WriteReg(R3, 0x00000000)  returns 0x00 (0000ms, 0969ms total)
T0A04 001:533 JLINK_WriteReg(R4, 0x00000000)  returns 0x00 (0000ms, 0969ms total)
T0A04 001:533 JLINK_WriteReg(R5, 0x00000000)  returns 0x00 (0000ms, 0969ms total)
T0A04 001:533 JLINK_WriteReg(R6, 0x00000000)  returns 0x00 (0000ms, 0969ms total)
T0A04 001:533 JLINK_WriteReg(R7, 0x00000000)  returns 0x00 (0000ms, 0969ms total)
T0A04 001:533 JLINK_WriteReg(R8, 0x00000000)  returns 0x00 (0000ms, 0969ms total)
T0A04 001:533 JLINK_WriteReg(R9, 0x2000016C)  returns 0x00 (0000ms, 0969ms total)
T0A04 001:533 JLINK_WriteReg(R10, 0x00000000)  returns 0x00 (0000ms, 0969ms total)
T0A04 001:533 JLINK_WriteReg(R11, 0x00000000)  returns 0x00 (0000ms, 0969ms total)
T0A04 001:533 JLINK_WriteReg(R12, 0x00000000)  returns 0x00 (0000ms, 0969ms total)
T0A04 001:533 JLINK_WriteReg(R13 (SP), 0x20001000)  returns 0x00 (0000ms, 0969ms total)
T0A04 001:533 JLINK_WriteReg(R14, 0x20000001)  returns 0x00 (0000ms, 0969ms total)
T0A04 001:533 JLINK_WriteReg(R15 (PC), 0x20000020)  returns 0x00 (0000ms, 0969ms total)
T0A04 001:533 JLINK_WriteReg(XPSR, 0x01000000)  returns 0x00 (0000ms, 0969ms total)
T0A04 001:533 JLINK_WriteReg(MSP, 0x20001000)  returns 0x00 (0000ms, 0969ms total)
T0A04 001:533 JLINK_WriteReg(PSP, 0x20001000)  returns 0x00 (0000ms, 0969ms total)
T0A04 001:533 JLINK_WriteReg(CFBP, 0x00000000)  returns 0x00 (0000ms, 0969ms total)
T0A04 001:533 JLINK_SetBPEx(Addr = 0x20000000, Type = 0xFFFFFFF2)  returns 0x0000000C (0000ms, 0969ms total)
T0A04 001:534 JLINK_Go() -- CPU_ReadMem(4 bytes @ 0xE0001000) -- CPU_WriteMem(4 bytes @ 0xE0001000) (0007ms, 0976ms total)
T0A04 001:541 JLINK_IsHalted() -- CPU_ReadMem(2 bytes @ 0x20000000)  returns TRUE (0012ms, 0988ms total)
T0A04 001:553 JLINK_ReadReg(R15 (PC))  returns 0x20000000 (0000ms, 0976ms total)
T0A04 001:553 JLINK_ClrBPEx(BPHandle = 0x0000000C)  returns 0x00 (0000ms, 0976ms total)
T0A04 001:553 JLINK_ReadReg(R0)  returns 0x00000001 (0000ms, 0976ms total)
T0A04 001:553 JLINK_WriteReg(R0, 0x08001400)  returns 0x00 (0000ms, 0976ms total)
T0A04 001:553 JLINK_WriteReg(R1, 0x00000400)  returns 0x00 (0000ms, 0976ms total)
T0A04 001:553 JLINK_WriteReg(R2, 0x000000FF)  returns 0x00 (0000ms, 0976ms total)
T0A04 001:553 JLINK_WriteReg(R3, 0x00000000)  returns 0x00 (0000ms, 0976ms total)
T0A04 001:553 JLINK_WriteReg(R4, 0x00000000)  returns 0x00 (0000ms, 0976ms total)
T0A04 001:553 JLINK_WriteReg(R5, 0x00000000)  returns 0x00 (0000ms, 0976ms total)
T0A04 001:553 JLINK_WriteReg(R6, 0x00000000)  returns 0x00 (0000ms, 0976ms total)
T0A04 001:553 JLINK_WriteReg(R7, 0x00000000)  returns 0x00 (0000ms, 0976ms total)
T0A04 001:553 JLINK_WriteReg(R8, 0x00000000)  returns 0x00 (0000ms, 0976ms total)
T0A04 001:553 JLINK_WriteReg(R9, 0x2000016C)  returns 0x00 (0001ms, 0977ms total)
T0A04 001:554 JLINK_WriteReg(R10, 0x00000000)  returns 0x00 (0000ms, 0977ms total)
T0A04 001:554 JLINK_WriteReg(R11, 0x00000000)  returns 0x00 (0000ms, 0977ms total)
T0A04 001:554 JLINK_WriteReg(R12, 0x00000000)  returns 0x00 (0000ms, 0977ms total)
T0A04 001:554 JLINK_WriteReg(R13 (SP), 0x20001000)  returns 0x00 (0000ms, 0977ms total)
T0A04 001:554 JLINK_WriteReg(R14, 0x20000001)  returns 0x00 (0000ms, 0977ms total)
T0A04 001:554 JLINK_WriteReg(R15 (PC), 0x200000B8)  returns 0x00 (0000ms, 0977ms total)
T0A04 001:554 JLINK_WriteReg(XPSR, 0x01000000)  returns 0x00 (0000ms, 0977ms total)
T0A04 001:554 JLINK_WriteReg(MSP, 0x20001000)  returns 0x00 (0000ms, 0977ms total)
T0A04 001:554 JLINK_WriteReg(PSP, 0x20001000)  returns 0x00 (0000ms, 0977ms total)
T0A04 001:554 JLINK_WriteReg(CFBP, 0x00000000)  returns 0x00 (0000ms, 0977ms total)
T0A04 001:554 JLINK_SetBPEx(Addr = 0x20000000, Type = 0xFFFFFFF2)  returns 0x0000000D (0000ms, 0977ms total)
T0A04 001:554 JLINK_Go() -- CPU_ReadMem(4 bytes @ 0xE0001000) -- CPU_WriteMem(4 bytes @ 0xE0001000) (0008ms, 0985ms total)
T0A04 001:562 JLINK_IsHalted()  returns FALSE (0002ms, 0987ms total)
T0A04 001:565 JLINK_IsHalted()  returns FALSE (0001ms, 0986ms total)
T0A04 001:567 JLINK_IsHalted()  returns FALSE (0001ms, 0986ms total)
T0A04 001:569 JLINK_IsHalted()  returns FALSE (0001ms, 0986ms total)
T0A04 001:571 JLINK_IsHalted()  returns FALSE (0001ms, 0986ms total)
T0A04 001:573 JLINK_IsHalted()  returns FALSE (0001ms, 0986ms total)
T0A04 001:575 JLINK_IsHalted()  returns FALSE (0001ms, 0986ms total)
T0A04 001:577 JLINK_IsHalted()  returns FALSE (0001ms, 0986ms total)
T0A04 001:579 JLINK_IsHalted()  returns FALSE (0001ms, 0986ms total)
T0A04 001:581 JLINK_IsHalted()  returns FALSE (0001ms, 0986ms total)
T0A04 001:583 JLINK_IsHalted() -- CPU_ReadMem(2 bytes @ 0x20000000)  returns TRUE (0010ms, 0995ms total)
T0A04 001:593 JLINK_ReadReg(R15 (PC))  returns 0x20000000 (0000ms, 0985ms total)
T0A04 001:593 JLINK_ClrBPEx(BPHandle = 0x0000000D)  returns 0x00 (0000ms, 0985ms total)
T0A04 001:594 JLINK_ReadReg(R0)  returns 0x00000000 (0000ms, 0986ms total)
T0A04 001:594 JLINK_WriteReg(R0, 0x08001800)  returns 0x00 (0001ms, 0987ms total)
T0A04 001:595 JLINK_WriteReg(R1, 0x00000400)  returns 0x00 (0000ms, 0987ms total)
T0A04 001:595 JLINK_WriteReg(R2, 0x000000FF)  returns 0x00 (0000ms, 0987ms total)
T0A04 001:595 JLINK_WriteReg(R3, 0x00000000)  returns 0x00 (0000ms, 0987ms total)
T0A04 001:595 JLINK_WriteReg(R4, 0x00000000)  returns 0x00 (0000ms, 0987ms total)
T0A04 001:595 JLINK_WriteReg(R5, 0x00000000)  returns 0x00 (0000ms, 0987ms total)
T0A04 001:595 JLINK_WriteReg(R6, 0x00000000)  returns 0x00 (0000ms, 0987ms total)
T0A04 001:595 JLINK_WriteReg(R7, 0x00000000)  returns 0x00 (0000ms, 0987ms total)
T0A04 001:595 JLINK_WriteReg(R8, 0x00000000)  returns 0x00 (0000ms, 0987ms total)
T0A04 001:595 JLINK_WriteReg(R9, 0x2000016C)  returns 0x00 (0000ms, 0987ms total)
T0A04 001:595 JLINK_WriteReg(R10, 0x00000000)  returns 0x00 (0000ms, 0987ms total)
T0A04 001:595 JLINK_WriteReg(R11, 0x00000000)  returns 0x00 (0000ms, 0987ms total)
T0A04 001:595 JLINK_WriteReg(R12, 0x00000000)  returns 0x00 (0000ms, 0987ms total)
T0A04 001:595 JLINK_WriteReg(R13 (SP), 0x20001000)  returns 0x00 (0000ms, 0987ms total)
T0A04 001:595 JLINK_WriteReg(R14, 0x20000001)  returns 0x00 (0000ms, 0987ms total)
T0A04 001:595 JLINK_WriteReg(R15 (PC), 0x20000020)  returns 0x00 (0001ms, 0988ms total)
T0A04 001:596 JLINK_WriteReg(XPSR, 0x01000000)  returns 0x00 (0000ms, 0988ms total)
T0A04 001:596 JLINK_WriteReg(MSP, 0x20001000)  returns 0x00 (0000ms, 0988ms total)
T0A04 001:596 JLINK_WriteReg(PSP, 0x20001000)  returns 0x00 (0000ms, 0988ms total)
T0A04 001:596 JLINK_WriteReg(CFBP, 0x00000000)  returns 0x00 (0000ms, 0988ms total)
T0A04 001:596 JLINK_SetBPEx(Addr = 0x20000000, Type = 0xFFFFFFF2)  returns 0x0000000E (0000ms, 0988ms total)
T0A04 001:596 JLINK_Go() -- CPU_ReadMem(4 bytes @ 0xE0001000) -- CPU_WriteMem(4 bytes @ 0xE0001000) (0008ms, 0996ms total)
T0A04 001:604 JLINK_IsHalted() -- CPU_ReadMem(2 bytes @ 0x20000000)  returns TRUE (0010ms, 1006ms total)
T0A04 001:614 JLINK_ReadReg(R15 (PC))  returns 0x20000000 (0000ms, 0996ms total)
T0A04 001:614 JLINK_ClrBPEx(BPHandle = 0x0000000E)  returns 0x00 (0000ms, 0996ms total)
T0A04 001:614 JLINK_ReadReg(R0)  returns 0x00000001 (0000ms, 0996ms total)
T0A04 001:614 JLINK_WriteReg(R0, 0x08001800)  returns 0x00 (0000ms, 0996ms total)
T0A04 001:614 JLINK_WriteReg(R1, 0x00000400)  returns 0x00 (0000ms, 0996ms total)
T0A04 001:614 JLINK_WriteReg(R2, 0x000000FF)  returns 0x00 (0001ms, 0997ms total)
T0A04 001:615 JLINK_WriteReg(R3, 0x00000000)  returns 0x00 (0000ms, 0997ms total)
T0A04 001:615 JLINK_WriteReg(R4, 0x00000000)  returns 0x00 (0000ms, 0997ms total)
T0A04 001:615 JLINK_WriteReg(R5, 0x00000000)  returns 0x00 (0000ms, 0997ms total)
T0A04 001:615 JLINK_WriteReg(R6, 0x00000000)  returns 0x00 (0000ms, 0997ms total)
T0A04 001:615 JLINK_WriteReg(R7, 0x00000000)  returns 0x00 (0000ms, 0997ms total)
T0A04 001:615 JLINK_WriteReg(R8, 0x00000000)  returns 0x00 (0000ms, 0997ms total)
T0A04 001:615 JLINK_WriteReg(R9, 0x2000016C)  returns 0x00 (0000ms, 0997ms total)
T0A04 001:615 JLINK_WriteReg(R10, 0x00000000)  returns 0x00 (0000ms, 0997ms total)
T0A04 001:615 JLINK_WriteReg(R11, 0x00000000)  returns 0x00 (0000ms, 0997ms total)
T0A04 001:615 JLINK_WriteReg(R12, 0x00000000)  returns 0x00 (0000ms, 0997ms total)
T0A04 001:615 JLINK_WriteReg(R13 (SP), 0x20001000)  returns 0x00 (0000ms, 0997ms total)
T0A04 001:615 JLINK_WriteReg(R14, 0x20000001)  returns 0x00 (0000ms, 0997ms total)
T0A04 001:615 JLINK_WriteReg(R15 (PC), 0x200000B8)  returns 0x00 (0000ms, 0997ms total)
T0A04 001:615 JLINK_WriteReg(XPSR, 0x01000000)  returns 0x00 (0000ms, 0997ms total)
T0A04 001:615 JLINK_WriteReg(MSP, 0x20001000)  returns 0x00 (0000ms, 0997ms total)
T0A04 001:615 JLINK_WriteReg(PSP, 0x20001000)  returns 0x00 (0001ms, 0998ms total)
T0A04 001:616 JLINK_WriteReg(CFBP, 0x00000000)  returns 0x00 (0000ms, 0998ms total)
T0A04 001:616 JLINK_SetBPEx(Addr = 0x20000000, Type = 0xFFFFFFF2)  returns 0x0000000F (0000ms, 0998ms total)
T0A04 001:616 JLINK_Go() -- CPU_ReadMem(4 bytes @ 0xE0001000) -- CPU_WriteMem(4 bytes @ 0xE0001000) (0007ms, 1005ms total)
T0A04 001:623 JLINK_IsHalted()  returns FALSE (0002ms, 1007ms total)
T0A04 001:640 JLINK_IsHalted()  returns FALSE (0001ms, 1006ms total)
T0A04 001:642 JLINK_IsHalted()  returns FALSE (0001ms, 1006ms total)
T0A04 001:644 JLINK_IsHalted() -- CPU_ReadMem(2 bytes @ 0x20000000)  returns TRUE (0010ms, 1015ms total)
T0A04 001:654 JLINK_ReadReg(R15 (PC))  returns 0x20000000 (0000ms, 1005ms total)
T0A04 001:654 JLINK_ClrBPEx(BPHandle = 0x0000000F)  returns 0x00 (0000ms, 1005ms total)
T0A04 001:654 JLINK_ReadReg(R0)  returns 0x00000000 (0000ms, 1005ms total)
T0A04 001:655 JLINK_WriteReg(R0, 0x08001C00)  returns 0x00 (0000ms, 1005ms total)
T0A04 001:655 JLINK_WriteReg(R1, 0x00000400)  returns 0x00 (0000ms, 1005ms total)
T0A04 001:655 JLINK_WriteReg(R2, 0x000000FF)  returns 0x00 (0001ms, 1006ms total)
T0A04 001:656 JLINK_WriteReg(R3, 0x00000000)  returns 0x00 (0000ms, 1006ms total)
T0A04 001:656 JLINK_WriteReg(R4, 0x00000000)  returns 0x00 (0000ms, 1006ms total)
T0A04 001:656 JLINK_WriteReg(R5, 0x00000000)  returns 0x00 (0000ms, 1006ms total)
T0A04 001:656 JLINK_WriteReg(R6, 0x00000000)  returns 0x00 (0000ms, 1006ms total)
T0A04 001:656 JLINK_WriteReg(R7, 0x00000000)  returns 0x00 (0000ms, 1006ms total)
T0A04 001:656 JLINK_WriteReg(R8, 0x00000000)  returns 0x00 (0000ms, 1006ms total)
T0A04 001:656 JLINK_WriteReg(R9, 0x2000016C)  returns 0x00 (0000ms, 1006ms total)
T0A04 001:656 JLINK_WriteReg(R10, 0x00000000)  returns 0x00 (0000ms, 1006ms total)
T0A04 001:656 JLINK_WriteReg(R11, 0x00000000)  returns 0x00 (0000ms, 1006ms total)
T0A04 001:656 JLINK_WriteReg(R12, 0x00000000)  returns 0x00 (0000ms, 1006ms total)
T0A04 001:656 JLINK_WriteReg(R13 (SP), 0x20001000)  returns 0x00 (0000ms, 1006ms total)
T0A04 001:656 JLINK_WriteReg(R14, 0x20000001)  returns 0x00 (0000ms, 1006ms total)
T0A04 001:656 JLINK_WriteReg(R15 (PC), 0x20000020)  returns 0x00 (0000ms, 1006ms total)
T0A04 001:656 JLINK_WriteReg(XPSR, 0x01000000)  returns 0x00 (0000ms, 1006ms total)
T0A04 001:657 JLINK_WriteReg(MSP, 0x20001000)  returns 0x00 (0000ms, 1006ms total)
T0A04 001:657 JLINK_WriteReg(PSP, 0x20001000)  returns 0x00 (0000ms, 1006ms total)
T0A04 001:657 JLINK_WriteReg(CFBP, 0x00000000)  returns 0x00 (0000ms, 1006ms total)
T0A04 001:657 JLINK_SetBPEx(Addr = 0x20000000, Type = 0xFFFFFFF2)  returns 0x00000010 (0000ms, 1006ms total)
T0A04 001:657 JLINK_Go() -- CPU_ReadMem(4 bytes @ 0xE0001000) -- CPU_WriteMem(4 bytes @ 0xE0001000) (0008ms, 1014ms total)
T0A04 001:665 JLINK_IsHalted() -- CPU_ReadMem(2 bytes @ 0x20000000)  returns TRUE (0011ms, 1025ms total)
T0A04 001:676 JLINK_ReadReg(R15 (PC))  returns 0x20000000 (0000ms, 1014ms total)
T0A04 001:676 JLINK_ClrBPEx(BPHandle = 0x00000010)  returns 0x00 (0000ms, 1014ms total)
T0A04 001:676 JLINK_ReadReg(R0)  returns 0x00000001 (0000ms, 1014ms total)
T0A04 001:676 JLINK_WriteReg(R0, 0x08001C00)  returns 0x00 (0000ms, 1014ms total)
T0A04 001:676 JLINK_WriteReg(R1, 0x00000400)  returns 0x00 (0000ms, 1014ms total)
T0A04 001:676 JLINK_WriteReg(R2, 0x000000FF)  returns 0x00 (0000ms, 1014ms total)
T0A04 001:676 JLINK_WriteReg(R3, 0x00000000)  returns 0x00 (0000ms, 1014ms total)
T0A04 001:676 JLINK_WriteReg(R4, 0x00000000)  returns 0x00 (0001ms, 1015ms total)
T0A04 001:677 JLINK_WriteReg(R5, 0x00000000)  returns 0x00 (0000ms, 1015ms total)
T0A04 001:677 JLINK_WriteReg(R6, 0x00000000)  returns 0x00 (0000ms, 1015ms total)
T0A04 001:677 JLINK_WriteReg(R7, 0x00000000)  returns 0x00 (0000ms, 1015ms total)
T0A04 001:677 JLINK_WriteReg(R8, 0x00000000)  returns 0x00 (0000ms, 1015ms total)
T0A04 001:677 JLINK_WriteReg(R9, 0x2000016C)  returns 0x00 (0000ms, 1015ms total)
T0A04 001:677 JLINK_WriteReg(R10, 0x00000000)  returns 0x00 (0000ms, 1015ms total)
T0A04 001:677 JLINK_WriteReg(R11, 0x00000000)  returns 0x00 (0000ms, 1015ms total)
T0A04 001:677 JLINK_WriteReg(R12, 0x00000000)  returns 0x00 (0000ms, 1015ms total)
T0A04 001:677 JLINK_WriteReg(R13 (SP), 0x20001000)  returns 0x00 (0000ms, 1015ms total)
T0A04 001:677 JLINK_WriteReg(R14, 0x20000001)  returns 0x00 (0000ms, 1015ms total)
T0A04 001:677 JLINK_WriteReg(R15 (PC), 0x200000B8)  returns 0x00 (0000ms, 1015ms total)
T0A04 001:677 JLINK_WriteReg(XPSR, 0x01000000)  returns 0x00 (0000ms, 1015ms total)
T0A04 001:677 JLINK_WriteReg(MSP, 0x20001000)  returns 0x00 (0000ms, 1015ms total)
T0A04 001:677 JLINK_WriteReg(PSP, 0x20001000)  returns 0x00 (0000ms, 1015ms total)
T0A04 001:677 JLINK_WriteReg(CFBP, 0x00000000)  returns 0x00 (0000ms, 1015ms total)
T0A04 001:677 JLINK_SetBPEx(Addr = 0x20000000, Type = 0xFFFFFFF2)  returns 0x00000011 (0001ms, 1016ms total)
T0A04 001:678 JLINK_Go() -- CPU_ReadMem(4 bytes @ 0xE0001000) -- CPU_WriteMem(4 bytes @ 0xE0001000) (0007ms, 1023ms total)
T0A04 001:685 JLINK_IsHalted()  returns FALSE (0002ms, 1025ms total)
T0A04 001:691 JLINK_IsHalted()  returns FALSE (0001ms, 1024ms total)
T0A04 001:693 JLINK_IsHalted()  returns FALSE (0001ms, 1024ms total)
